
T11C0 000:050 SEGGER J-Link V6.14b Log File (0001ms, 0041ms total)
T11C0 000:050 DLL Compiled: Mar  9 2017 08:46:04 (0001ms, 0041ms total)
T11C0 000:050 Logging started @ 2017-08-04 19:55 (0001ms, 0041ms total)
T11C0 000:051 JLINK_SetWarnOutHandler(...) (0000ms, 0041ms total)
T11C0 000:051 JLINK_OpenEx(...)
Firmware: J-Link V9 compiled Dec 16 2016 15:34:10
Hardware: V9.30
S/N: 269300221
OEM: SEGGER-EDU
Feature(s): FlashBP, GDBWEBSRV Webserver running on local port 19080 (0024ms, 0065ms total)
T11C0 000:051   returns O.K. (0024ms, 0065ms total)
T11C0 000:075 JLINK_SetErrorOutHandler(...) (0000ms, 0065ms total)
T11C0 000:075 JLINK_ExecCommand("ProjectFile = "C:\Users\serfas\BMS Projekt\hsrt_mechatronik_projekt\hsrt_mechatronik_projekt\JLinkSettings.ini"", ...). C:\Program Files (x86)\SEGGER\JLink_V614b\JLinkDevices.xml evaluated successfully.  returns 0x00 (0140ms, 0205ms total)
T11C0 000:215 JLINK_ExecCommand("Device = ADuCM360", ...). Device "ADUCM360" selected.  returns 0x00 (0000ms, 0205ms total)
T11C0 000:215 JLINK_ExecCommand("DisableConnectionTimeout", ...).   returns 0x01 (0000ms, 0205ms total)
T11C0 000:215 JLINK_GetHardwareVersion()  returns 0x16B48 (0000ms, 0205ms total)
T11C0 000:215 JLINK_GetDLLVersion()  returns 61402 (0000ms, 0205ms total)
T11C0 000:215 JLINK_GetDLLVersion()  returns 61402 (0000ms, 0205ms total)
T11C0 000:215 JLINK_GetCompileDateTime() (0000ms, 0205ms total)
T11C0 000:216 JLINK_GetFirmwareString(...) (0000ms, 0205ms total)
T11C0 000:216 JLINK_GetHardwareVersion()  returns 0x16B48 (0000ms, 0205ms total)
T11C0 000:216 JLINK_TIF_Select(JLINKARM_TIF_SWD)  returns 0x00 (0004ms, 0209ms total)
T11C0 000:220 JLINK_SetSpeed(5000) (0001ms, 0210ms total)
T11C0 000:221 JLINK_GetId() >0x108 TIF>Found SWD-DP with ID 0x2BA01477 >0x0D TIF> >0x28 TIF> >0x0D TIF> >0x28 TIF> >0x0D TIF> >0x28 TIF> >0x0D TIF> >0x28 TIF> >0x0D TIF> >0x21 TIF> >0x0D TIF> >0x28 TIF> >0x0D TIF> >0x28 TIF> >0x0D TIF> >0x21 TIF> >0x0D TIF> >0x21 TIF> >0x0D TIF> >0x21 TIF>AP-IDR: 0x24770011, Type: AHB-APAHB-AP ROM: 0xE00FF000 (Base addr. of first ROM table) >0x0D TIF> >0x28 TIF> >0x0D TIF> >0x28 TIF> >0x0D TIF> >0x28 TIF> >0x0D TIF> >0x0D TIF> >0x21 TIF> >0x0D TIF> >0x21 TIF> >0x0D TIF>
 >0x28 TIF> >0x0D TIF> >0x0D TIF> >0x21 TIF> >0x0D TIF> >0x21 TIF>Found Cortex-M3 r2p0, Little endian. -- CPU_ReadMem(4 bytes @ 0xE000EDF0) -- CPU_WriteMem(4 bytes @ 0xE000EDF0) -- CPU_ReadMem(4 bytes @ 0xE0002000)FPUnit: 6 code (BP) slots and 2 literal slots -- CPU_ReadMem(4 bytes @ 0xE000EDFC) -- CPU_WriteMem(4 bytes @ 0xE000EDFC) -- CPU_ReadMem(4 bytes @ 0xE0001000) -- CPU_WriteMem(4 bytes @ 0xE0001000) -- CPU_ReadMem(4 bytes @ 0xE000ED88) -- CPU_WriteMem(4 bytes @ 0xE000ED88)
 -- CPU_ReadMem(4 bytes @ 0xE000ED88) -- CPU_WriteMem(4 bytes @ 0xE000ED88)CoreSight components:ROMTbl 0 @ E00FF000 -- CPU_ReadMem(16 bytes @ 0xE00FF000) -- CPU_ReadMem(16 bytes @ 0xE000EFF0) -- CPU_ReadMem(16 bytes @ 0xE000EFE0)ROMTbl 0 [0]: FFF0F000, CID: B105E00D, PID: 002BB000 SCS -- CPU_ReadMem(16 bytes @ 0xE0001FF0) -- CPU_ReadMem(16 bytes @ 0xE0001FE0)ROMTbl 0 [1]: FFF02000, CID: B105E00D, PID: 002BB002 DWT -- CPU_ReadMem(16 bytes @ 0xE0002FF0) -- CPU_ReadMem(16 bytes @ 0xE0002FE0)
ROMTbl 0 [2]: FFF03000, CID: B105E00D, PID: 002BB003 FPB -- CPU_ReadMem(16 bytes @ 0xE00FF010) >0x0D TIF> >0x21 TIF>  returns 0x2BA01477 (0069ms, 0279ms total)
T11C0 000:290 JLINK_GetDLLVersion()  returns 61402 (0000ms, 0279ms total)
T11C0 000:290 JLINK_CORE_GetFound()  returns 0x30000FF (0000ms, 0279ms total)
T11C0 000:290 JLINK_GetDebugInfo(0x100 = JLINKARM_ROM_TABLE_ADDR_INDEX) -- Value=0xE00FF000  returns 0x00 (0000ms, 0279ms total)
T11C0 000:290 JLINK_GetDebugInfo(0x100 = JLINKARM_ROM_TABLE_ADDR_INDEX) -- Value=0xE00FF000  returns 0x00 (0000ms, 0279ms total)
T11C0 000:290 JLINK_GetDebugInfo(0x101 = JLINKARM_DEBUG_INFO_ETM_ADDR_INDEX) -- Value=0x00000000  returns 0x00 (0000ms, 0279ms total)
T11C0 000:290 JLINK_ReadMem (0xE0041FF0, 0x0010 Bytes, ...) -- CPU is running -- CPU_ReadMem(16 bytes @ 0xE0041FF0) - Data: 00 00 00 00 00 00 00 00 00 00 00 00 00 00 00 00  returns 0x00 (0002ms, 0281ms total)
T11C0 000:292 JLINK_GetDebugInfo(0x102 = JLINKARM_DEBUG_INFO_MTB_ADDR_INDEX) -- Value=0x00000000  returns 0x00 (0000ms, 0281ms total)
T11C0 000:292 JLINK_GetDebugInfo(0x103 = JLINKARM_DEBUG_INFO_TPIU_ADDR_INDEX) -- Value=0x00000000  returns 0x00 (0000ms, 0281ms total)
T11C0 000:292 JLINK_ReadMem (0xE0040FF0, 0x0010 Bytes, ...) -- CPU is running -- CPU_ReadMem(16 bytes @ 0xE0040FF0) - Data: 00 00 00 00 00 00 00 00 00 00 00 00 00 00 00 00  returns 0x00 (0001ms, 0282ms total)
T11C0 000:293 JLINK_GetDebugInfo(0x104 = JLINKARM_DEBUG_INFO_ITM_ADDR_INDEX) -- Value=0xE0000000  returns 0x00 (0000ms, 0282ms total)
T11C0 000:293 JLINK_GetDebugInfo(0x105 = JLINKARM_DEBUG_INFO_DWT_ADDR_INDEX) -- Value=0xE0001000  returns 0x00 (0000ms, 0282ms total)
T11C0 000:293 JLINK_GetDebugInfo(0x106 = JLINKARM_DEBUG_INFO_FPB_ADDR_INDEX) -- Value=0xE0002000  returns 0x00 (0000ms, 0282ms total)
T11C0 000:293 JLINK_GetDebugInfo(0x107 = JLINKARM_DEBUG_INFO_NVIC_ADDR_INDEX) -- Value=0xE000E000  returns 0x00 (0000ms, 0282ms total)
T11C0 000:293 JLINK_GetDebugInfo(0x10C = JLINKARM_DEBUG_INFO_DBG_ADDR_INDEX) -- Value=0xE000EDF0  returns 0x00 (0000ms, 0282ms total)
T11C0 000:293 JLINK_ReadMemU32(0xE000ED00, 0x0001 Items, ...) -- CPU is running -- CPU_ReadMem(4 bytes @ 0xE000ED00) - Data: 30 C2 2F 41  returns 0x01 (0001ms, 0283ms total)
T11C0 000:294 JLINK_SetResetType(JLINKARM_CM3_RESET_TYPE_NORMAL)  returns JLINKARM_CM3_RESET_TYPE_ADI_HALT_AFTER_KERNEL (0000ms, 0283ms total)
T11C0 000:294 JLINK_Reset() -- CPU is running -- CPU_WriteMem(4 bytes @ 0xE000EDFC) -- CPU is running -- CPU_WriteMem(4 bytes @ 0xE000EDFC) -- CPU is running -- CPU_WriteMem(4 bytes @ 0xE000EDFC) -- CPU is running -- CPU_WriteMem(4 bytes @ 0xE000EDFC) -- CPU is running -- CPU_WriteMem(4 bytes @ 0xE000EDFC) -- CPU is running -- CPU_WriteMem(4 bytes @ 0xE0001050) -- CPU is running -- CPU_WriteMem(4 bytes @ 0xE0001054) -- CPU is running -- CPU_WriteMem(4 bytes @ 0xE0001058) -- CPU is running
 -- CPU_WriteMem(4 bytes @ 0xE000ED0C) -- CPU_ReadMem(4 bytes @ 0xE000EDF0) -- CPU_WriteMem(4 bytes @ 0xE000EDFC) -- CPU_WriteMem(4 bytes @ 0xE0001058) -- CPU_ReadMem(4 bytes @ 0x00000000) -- CPU_ReadMem(4 bytes @ 0x00000004) -- CPU_WriteMem(4 bytes @ 0xE0002000) -- CPU_ReadMem(4 bytes @ 0xE000EDFC) -- CPU_ReadMem(4 bytes @ 0xE0001000) (0221ms, 0504ms total)
T11C0 000:516 JLINK_ReadReg(R15 (PC))  returns 0x0000017C (0000ms, 0505ms total)
T11C0 000:516 JLINK_ReadReg(XPSR)  returns 0x21000000 (0000ms, 0505ms total)
T11C0 000:516 JLINK_Halt()  returns 0x00 (0000ms, 0505ms total)
T11C0 000:516 JLINK_IsHalted()  returns TRUE (0000ms, 0505ms total)
T11C0 000:516 JLINK_ReadMemU32(0xE000EDF0, 0x0001 Items, ...) -- CPU_ReadMem(4 bytes @ 0xE000EDF0) - Data: 03 00 03 00  returns 0x01 (0002ms, 0507ms total)
T11C0 000:518 JLINK_WriteU32(0xE000EDF0, 0xA05F0003) -- CPU_WriteMem(4 bytes @ 0xE000EDF0)  returns 0x00 (0001ms, 0508ms total)
T11C0 000:519 JLINK_WriteU32(0xE000EDFC, 0x01000000) -- CPU_WriteMem(4 bytes @ 0xE000EDFC)  returns 0x00 (0001ms, 0509ms total)
T11C0 000:520 JLINK_GetHWStatus(...)  returns 0x00 (0001ms, 0510ms total)
T11C0 000:521 JLINK_GetNumBPUnits(Type = 0xFFFFFF00)  returns 0x06 (0000ms, 0510ms total)
T11C0 000:521 JLINK_GetNumBPUnits(Type = 0xF0)  returns 0x2000 (0000ms, 0510ms total)
T11C0 000:521 JLINK_GetNumWPUnits()  returns 0x04 (0000ms, 0510ms total)
T11C0 000:522 JLINK_GetSpeed()  returns 0xFA0 (0000ms, 0510ms total)
T11C0 000:522 JLINK_ReadMemU32(0xE000E004, 0x0001 Items, ...) -- CPU_ReadMem(4 bytes @ 0xE000E004) - Data: 01 00 00 00  returns 0x01 (0002ms, 0512ms total)
T11C0 000:524 JLINK_ReadMemU32(0xE000E004, 0x0001 Items, ...) -- CPU_ReadMem(4 bytes @ 0xE000E004) - Data: 01 00 00 00  returns 0x01 (0001ms, 0513ms total)
T11C0 000:525 JLINK_WriteMem(0xE0001000, 0x001C Bytes, ...) - Data: 01 00 00 00 00 00 00 00 00 00 00 00 00 00 00 00 ... -- CPU_WriteMem(28 bytes @ 0xE0001000)  returns 0x1C (0002ms, 0515ms total)
T11C0 000:527 JLINK_ReadMem (0xE0001000, 0x001C Bytes, ...) -- CPU_ReadMem(28 bytes @ 0xE0001000) - Data: 01 00 00 4F 00 00 00 00 00 00 00 00 00 00 00 00 ...  returns 0x00 (0001ms, 0516ms total)
T11C0 000:528 JLINK_ReadReg(R15 (PC))  returns 0x0000017C (0000ms, 0516ms total)
T11C0 000:528 JLINK_ReadReg(XPSR)  returns 0x21000000 (0000ms, 0516ms total)
T11C0 000:563 JLINK_WriteMem(0x00000000, 0x0400 Bytes, ...) - Data: 68 06 00 20 7D 01 00 00 85 01 00 00 87 01 00 00 ...  returns 0x400 (0000ms, 0516ms total)
T11C0 000:563 JLINK_WriteMem(0x00000400, 0x0400 Bytes, ...) - Data: 00 F0 6E F9 E9 E7 00 00 00 00 03 40 6D AF D4 FF ...  returns 0x400 (0000ms, 0516ms total)
T11C0 000:563 JLINK_WriteMem(0x00000800, 0x02EC Bytes, ...) - Data: 30 21 8D F8 05 10 FF 21 8D F8 06 10 00 21 8D F8 ...  returns 0x2EC (0000ms, 0516ms total)
T11C0 000:563 JLINK_ReadMem (0x00000000, 0x0AEC Bytes, ...) -- Read from flash cache (2796 bytes @ 0x00000000) - Data: 68 06 00 20 7D 01 00 00 85 01 00 00 87 01 00 00 ...  returns 0x00 (0000ms, 0516ms total)
T11C0 000:617 JLINK_SetResetType(JLINKARM_CM3_RESET_TYPE_NORMAL)  returns JLINKARM_CM3_RESET_TYPE_ADI_HALT_AFTER_KERNEL (0000ms, 0516ms total)
T11C0 000:617 JLINK_Reset() -- -------------------------------------- -- Start of determining dirty areas in flash cache -- End of determining dirty areas -- Start of preparing flash programming -- Calculating RAM usage -- RAM usage = 2236 Bytes -- Preserving CPU registers -- Preparing memory -- Determining CPU clock frequency -- Preparing target -- Downloading RAMCode -- Checking target RAM -- Preparing RAMCode -- End of preparing flash programming -- CPU speed could not be measured.
 -- Start of comparing flash -- CRC check was estimated as fastest method -- Comparing range 0x0000 - 0x0BFF (6 Sectors, 3 KB), using multi-block CRC calculation -- All CRCs match -- Comparing range 0x0000 - 0x0BFF (6 Sectors, 3 KB), using alternative multi-block CRC calculation -- All CRCs match -- End of comparing flash -- Start of erasing sectors -- End of erasing sectors -- Start of flash programming -- End of flash programming -- Start of verifying flash -- End of verifying flash
 -- Start of restoring -- Restoring RAMCode -- Restore target -- Restore memory -- Restoring CPU registers -- End of restoring -- Flash download skipped. Flash contents already match -- Flash download skipped. Flash contents already match -- CPU_WriteMem(4 bytes @ 0xE000EDFC) -- CPU_WriteMem(4 bytes @ 0xE000EDFC) -- CPU_WriteMem(4 bytes @ 0xE000EDFC) -- CPU_WriteMem(4 bytes @ 0xE000EDFC) -- CPU_WriteMem(4 bytes @ 0xE000EDFC) -- CPU_WriteMem(4 bytes @ 0xE0001050) -- CPU_WriteMem(4 bytes @ 0xE0001054)
 -- CPU_WriteMem(4 bytes @ 0xE0001058) -- CPU_WriteMem(4 bytes @ 0xE000ED0C) -- CPU_ReadMem(4 bytes @ 0xE000EDF0) -- CPU_WriteMem(4 bytes @ 0xE000EDFC) -- CPU_WriteMem(4 bytes @ 0xE0001058) -- CPU_ReadMem(4 bytes @ 0x00000000) -- CPU_ReadMem(4 bytes @ 0x00000004) -- CPU_WriteMem(4 bytes @ 0xE0002000) -- CPU_ReadMem(4 bytes @ 0xE000EDFC) -- CPU_ReadMem(4 bytes @ 0xE0001000) (0440ms, 0956ms total)
T11C0 001:057 JLINK_ReadReg(R15 (PC))  returns 0x0000017C (0000ms, 0956ms total)
T11C0 001:057 JLINK_ReadReg(XPSR)  returns 0x21000000 (0000ms, 0956ms total)
T11C0 001:144 JLINK_ReadMem (0x40030000, 0x0001 Bytes, ...) -- CPU_ReadMem(1 bytes @ 0x40030000) - Data: 00  returns 0x00 (0002ms, 0958ms total)
T11C0 001:146 JLINK_ReadMem (0x40030004, 0x0001 Bytes, ...) -- CPU_ReadMem(1 bytes @ 0x40030004) - Data: 00  returns 0x00 (0001ms, 0959ms total)
T11C0 001:147 JLINK_ReadMem (0x40030008, 0x0004 Bytes, ...) -- CPU_ReadMem(4 bytes @ 0x40030008) - Data: 00 00 08 00  returns 0x00 (0001ms, 0960ms total)
T11C0 001:148 JLINK_ReadMem (0x4003000C, 0x0002 Bytes, ...) -- CPU_ReadMem(2 bytes @ 0x4003000C) - Data: 00 00  returns 0x00 (0001ms, 0961ms total)
T11C0 001:149 JLINK_ReadMem (0x40030010, 0x0002 Bytes, ...) -- CPU_ReadMem(2 bytes @ 0x40030010) - Data: 60 55  returns 0x00 (0001ms, 0962ms total)
T11C0 001:150 JLINK_ReadMem (0x40030014, 0x0002 Bytes, ...) -- CPU_ReadMem(2 bytes @ 0x40030014) - Data: 65 55  returns 0x00 (0001ms, 0963ms total)
T11C0 001:151 JLINK_ReadMem (0x40030018, 0x0002 Bytes, ...) -- CPU_ReadMem(2 bytes @ 0x40030018) - Data: 55 55  returns 0x00 (0001ms, 0964ms total)
T11C0 001:152 JLINK_ReadMem (0x4003001C, 0x0002 Bytes, ...) -- CPU_ReadMem(2 bytes @ 0x4003001C) - Data: 00 00  returns 0x00 (0001ms, 0965ms total)
T11C0 001:153 JLINK_ReadMem (0x40030020, 0x0002 Bytes, ...) -- CPU_ReadMem(2 bytes @ 0x40030020) - Data: 7D 00  returns 0x00 (0001ms, 0966ms total)
T11C0 001:154 JLINK_ReadMem (0x40030024, 0x0002 Bytes, ...) -- CPU_ReadMem(2 bytes @ 0x40030024) - Data: 00 00  returns 0x00 (0001ms, 0967ms total)
T11C0 001:155 JLINK_ReadMem (0x40030028, 0x0002 Bytes, ...) -- CPU_ReadMem(2 bytes @ 0x40030028) - Data: 01 00  returns 0x00 (0001ms, 0968ms total)
T11C0 001:156 JLINK_ReadMem (0x4003002C, 0x0002 Bytes, ...) -- CPU_ReadMem(2 bytes @ 0x4003002C) - Data: 00 00  returns 0x00 (0001ms, 0969ms total)
T11C0 001:157 JLINK_ReadMem (0x40030030, 0x0002 Bytes, ...) -- CPU_ReadMem(2 bytes @ 0x40030030) - Data: 00 00  returns 0x00 (0001ms, 0970ms total)
T11C0 001:158 JLINK_ReadMem (0x40030034, 0x0001 Bytes, ...) -- CPU_ReadMem(1 bytes @ 0x40030034) - Data: 01  returns 0x00 (0001ms, 0971ms total)
T11C0 001:159 JLINK_ReadMem (0x40030038, 0x0001 Bytes, ...) -- CPU_ReadMem(1 bytes @ 0x40030038) - Data: 00  returns 0x00 (0001ms, 0972ms total)
T11C0 001:160 JLINK_ReadMem (0x4003003C, 0x0004 Bytes, ...) -- CPU_ReadMem(4 bytes @ 0x4003003C) - Data: 00 00 00 00  returns 0x00 (0001ms, 0973ms total)
T11C0 001:161 JLINK_ReadMem (0x40030040, 0x0004 Bytes, ...) -- CPU_ReadMem(4 bytes @ 0x40030040) - Data: 00 00 00 00  returns 0x00 (0001ms, 0974ms total)
T11C0 001:162 JLINK_ReadMem (0x40030044, 0x0001 Bytes, ...) -- CPU_ReadMem(1 bytes @ 0x40030044) - Data: 00  returns 0x00 (0001ms, 0975ms total)
T11C0 001:163 JLINK_ReadMem (0x40030048, 0x0004 Bytes, ...) -- CPU_ReadMem(4 bytes @ 0x40030048) - Data: 00 00 00 00  returns 0x00 (0001ms, 0976ms total)
T11C0 001:176 JLINK_ReadMem (0x40004400, 0x0002 Bytes, ...) -- CPU_ReadMem(2 bytes @ 0x40004400) - Data: 00 00  returns 0x00 (0001ms, 0977ms total)
T11C0 001:177 JLINK_ReadMem (0x40004404, 0x0001 Bytes, ...) -- CPU_ReadMem(1 bytes @ 0x40004404) - Data: 00  returns 0x00 (0001ms, 0978ms total)
T11C0 001:178 JLINK_ReadMem (0x40004408, 0x0001 Bytes, ...) -- CPU_ReadMem(1 bytes @ 0x40004408) - Data: 00  returns 0x00 (0001ms, 0979ms total)
T11C0 001:179 JLINK_ReadMem (0x4000440C, 0x0002 Bytes, ...) -- CPU_ReadMem(2 bytes @ 0x4000440C) - Data: 00 00  returns 0x00 (0001ms, 0980ms total)
T11C0 001:180 JLINK_ReadMem (0x40004410, 0x0002 Bytes, ...) -- CPU_ReadMem(2 bytes @ 0x40004410) - Data: 00 00  returns 0x00 (0001ms, 0981ms total)
T11C0 001:181 JLINK_ReadMem (0x40004414, 0x0002 Bytes, ...) -- CPU_ReadMem(2 bytes @ 0x40004414) - Data: 00 00  returns 0x00 (0001ms, 0982ms total)
T11C0 001:182 JLINK_ReadMem (0x40004418, 0x0002 Bytes, ...) -- CPU_ReadMem(2 bytes @ 0x40004418) - Data: 00 00  returns 0x00 (0001ms, 0983ms total)
T105C 001:697 JLINK_SetBPEx(Addr = 0x000003B8, Type = 0xFFFFFFF2)  returns 0x00000001 (0000ms, 0983ms total)
T105C 001:697 JLINK_Go() -- CPU_WriteMem(4 bytes @ 0xE0002000) -- CPU_ReadMem(4 bytes @ 0xE0001000) -- CPU_WriteMem(4 bytes @ 0xE0002008) -- CPU_WriteMem(4 bytes @ 0xE000200C) -- CPU_WriteMem(4 bytes @ 0xE0002010) -- CPU_WriteMem(4 bytes @ 0xE0002014) -- CPU_WriteMem(4 bytes @ 0xE0002018) -- CPU_WriteMem(4 bytes @ 0xE000201C) -- CPU_WriteMem(4 bytes @ 0xE0001004) (0008ms, 0991ms total)
T105C 001:805 JLINK_IsHalted()  returns TRUE (0003ms, 0994ms total)
T105C 001:808 JLINK_Halt()  returns 0x00 (0000ms, 0991ms total)
T105C 001:809 JLINK_IsHalted()  returns TRUE (0000ms, 0992ms total)
T105C 001:809 JLINK_IsHalted()  returns TRUE (0000ms, 0992ms total)
T105C 001:809 JLINK_IsHalted()  returns TRUE (0000ms, 0992ms total)
T105C 001:809 JLINK_ReadReg(R15 (PC))  returns 0x000003B8 (0000ms, 0992ms total)
T105C 001:809 JLINK_ReadReg(XPSR)  returns 0x21000000 (0000ms, 0992ms total)
T105C 001:809 JLINK_ClrBPEx(BPHandle = 0x00000001)  returns 0x00 (0000ms, 0992ms total)
T105C 001:809 JLINK_ReadMemU32(0xE000ED30, 0x0001 Items, ...) -- CPU_ReadMem(4 bytes @ 0xE000ED30) - Data: 02 00 00 00  returns 0x01 (0002ms, 0994ms total)
T105C 001:811 JLINK_ReadMemU32(0xE0001028, 0x0001 Items, ...) -- CPU_ReadMem(4 bytes @ 0xE0001028) - Data: 00 00 00 00  returns 0x01 (0001ms, 0995ms total)
T105C 001:812 JLINK_ReadMemU32(0xE0001038, 0x0001 Items, ...) -- CPU_ReadMem(4 bytes @ 0xE0001038) - Data: 00 02 00 00  returns 0x01 (0001ms, 0996ms total)
T105C 001:813 JLINK_ReadMemU32(0xE0001048, 0x0001 Items, ...) -- CPU_ReadMem(4 bytes @ 0xE0001048) - Data: 00 00 00 00  returns 0x01 (0001ms, 0997ms total)
T105C 001:814 JLINK_ReadMemU32(0xE0001058, 0x0001 Items, ...) -- CPU_ReadMem(4 bytes @ 0xE0001058) - Data: 00 00 00 01  returns 0x01 (0001ms, 0998ms total)
T105C 001:815 JLINK_ReadReg(R0)  returns 0x20000068 (0000ms, 0998ms total)
T105C 001:815 JLINK_ReadReg(R1)  returns 0x20000268 (0000ms, 0998ms total)
T105C 001:815 JLINK_ReadReg(R2)  returns 0x20000268 (0000ms, 0998ms total)
T105C 001:815 JLINK_ReadReg(R3)  returns 0x20000268 (0000ms, 0998ms total)
T105C 001:815 JLINK_ReadReg(R4)  returns 0x00000000 (0000ms, 0998ms total)
T105C 001:815 JLINK_ReadReg(R5)  returns 0x20000004 (0000ms, 0998ms total)
T105C 001:815 JLINK_ReadReg(R6)  returns 0x00000000 (0000ms, 0998ms total)
T105C 001:815 JLINK_ReadReg(R7)  returns 0x00000000 (0000ms, 0998ms total)
T105C 001:815 JLINK_ReadReg(R8)  returns 0x00000000 (0000ms, 0998ms total)
T105C 001:816 JLINK_ReadReg(R9)  returns 0x00000000 (0000ms, 0999ms total)
T105C 001:816 JLINK_ReadReg(R10)  returns 0x00000AE8 (0000ms, 0999ms total)
T105C 001:816 JLINK_ReadReg(R11)  returns 0x00000000 (0000ms, 0999ms total)
T105C 001:816 JLINK_ReadReg(R12)  returns 0x20000044 (0000ms, 0999ms total)
T105C 001:816 JLINK_ReadReg(R13 (SP))  returns 0x20000668 (0000ms, 0999ms total)
T105C 001:816 JLINK_ReadReg(R14)  returns 0x0000016B (0000ms, 0999ms total)
T105C 001:816 JLINK_ReadReg(R15 (PC))  returns 0x000003B8 (0000ms, 0999ms total)
T105C 001:816 JLINK_ReadReg(XPSR)  returns 0x21000000 (0000ms, 0999ms total)
T105C 001:816 JLINK_ReadReg(MSP)  returns 0x20000668 (0000ms, 0999ms total)
T105C 001:816 JLINK_ReadReg(PSP)  returns 0x20000800 (0000ms, 0999ms total)
T105C 001:816 JLINK_ReadReg(CFBP)  returns 0x00000000 (0000ms, 0999ms total)
T11C0 001:817 JLINK_ReadMem (0x00000000, 0x0004 Bytes, ...) -- Read from flash cache (4 bytes @ 0x00000000) - Data: 68 06 00 20  returns 0x00 (0001ms, 1000ms total)
T11C0 001:818 JLINK_ReadMem (0x00000000, 0x0004 Bytes, ...) -- Read from flash cache (4 bytes @ 0x00000000) - Data: 68 06 00 20  returns 0x00 (0000ms, 1000ms total)
T11C0 001:819 JLINK_ReadMem (0x00000000, 0x0004 Bytes, ...) -- Read from flash cache (4 bytes @ 0x00000000) - Data: 68 06 00 20  returns 0x00 (0000ms, 1000ms total)
T11C0 001:819 JLINK_ReadMem (0x00000000, 0x0004 Bytes, ...) -- Read from flash cache (4 bytes @ 0x00000000) - Data: 68 06 00 20  returns 0x00 (0000ms, 1000ms total)
T11C0 001:849 JLINK_ReadMem (0x40030000, 0x0001 Bytes, ...) -- CPU_ReadMem(1 bytes @ 0x40030000) - Data: 00  returns 0x00 (0001ms, 1001ms total)
T11C0 001:850 JLINK_ReadMem (0x40030004, 0x0001 Bytes, ...) -- CPU_ReadMem(1 bytes @ 0x40030004) - Data: 00  returns 0x00 (0001ms, 1002ms total)
T11C0 001:851 JLINK_ReadMem (0x40030008, 0x0004 Bytes, ...) -- CPU_ReadMem(4 bytes @ 0x40030008) - Data: 00 00 08 00  returns 0x00 (0001ms, 1003ms total)
T11C0 001:852 JLINK_ReadMem (0x4003000C, 0x0002 Bytes, ...) -- CPU_ReadMem(2 bytes @ 0x4003000C) - Data: 00 00  returns 0x00 (0001ms, 1004ms total)
T11C0 001:853 JLINK_ReadMem (0x40030010, 0x0002 Bytes, ...) -- CPU_ReadMem(2 bytes @ 0x40030010) - Data: 60 55  returns 0x00 (0001ms, 1005ms total)
T11C0 001:854 JLINK_ReadMem (0x40030014, 0x0002 Bytes, ...) -- CPU_ReadMem(2 bytes @ 0x40030014) - Data: 65 55  returns 0x00 (0001ms, 1006ms total)
T11C0 001:855 JLINK_ReadMem (0x40030018, 0x0002 Bytes, ...) -- CPU_ReadMem(2 bytes @ 0x40030018) - Data: 55 55  returns 0x00 (0001ms, 1007ms total)
T11C0 001:856 JLINK_ReadMem (0x4003001C, 0x0002 Bytes, ...) -- CPU_ReadMem(2 bytes @ 0x4003001C) - Data: 00 00  returns 0x00 (0001ms, 1008ms total)
T11C0 001:857 JLINK_ReadMem (0x40030020, 0x0002 Bytes, ...) -- CPU_ReadMem(2 bytes @ 0x40030020) - Data: 7D 00  returns 0x00 (0001ms, 1009ms total)
T11C0 001:858 JLINK_ReadMem (0x40030024, 0x0002 Bytes, ...) -- CPU_ReadMem(2 bytes @ 0x40030024) - Data: 00 00  returns 0x00 (0001ms, 1010ms total)
T11C0 001:859 JLINK_ReadMem (0x40030028, 0x0002 Bytes, ...) -- CPU_ReadMem(2 bytes @ 0x40030028) - Data: 01 00  returns 0x00 (0001ms, 1011ms total)
T11C0 001:860 JLINK_ReadMem (0x4003002C, 0x0002 Bytes, ...) -- CPU_ReadMem(2 bytes @ 0x4003002C) - Data: 00 00  returns 0x00 (0001ms, 1012ms total)
T11C0 001:861 JLINK_ReadMem (0x40030030, 0x0002 Bytes, ...) -- CPU_ReadMem(2 bytes @ 0x40030030) - Data: 00 00  returns 0x00 (0001ms, 1013ms total)
T11C0 001:862 JLINK_ReadMem (0x40030034, 0x0001 Bytes, ...) -- CPU_ReadMem(1 bytes @ 0x40030034) - Data: 01  returns 0x00 (0001ms, 1014ms total)
T11C0 001:863 JLINK_ReadMem (0x40030038, 0x0001 Bytes, ...) -- CPU_ReadMem(1 bytes @ 0x40030038) - Data: 00  returns 0x00 (0001ms, 1015ms total)
T11C0 001:864 JLINK_ReadMem (0x4003003C, 0x0004 Bytes, ...) -- CPU_ReadMem(4 bytes @ 0x4003003C) - Data: 00 00 00 00  returns 0x00 (0001ms, 1016ms total)
T11C0 001:865 JLINK_ReadMem (0x40030040, 0x0004 Bytes, ...) -- CPU_ReadMem(4 bytes @ 0x40030040) - Data: 00 00 00 00  returns 0x00 (0001ms, 1017ms total)
T11C0 001:866 JLINK_ReadMem (0x40030044, 0x0001 Bytes, ...) -- CPU_ReadMem(1 bytes @ 0x40030044) - Data: 00  returns 0x00 (0001ms, 1018ms total)
T11C0 001:867 JLINK_ReadMem (0x40030048, 0x0004 Bytes, ...) -- CPU_ReadMem(4 bytes @ 0x40030048) - Data: 00 00 00 00  returns 0x00 (0001ms, 1019ms total)
T11C0 001:868 JLINK_ReadMem (0x40004400, 0x0002 Bytes, ...) -- CPU_ReadMem(2 bytes @ 0x40004400) - Data: 00 00  returns 0x00 (0001ms, 1020ms total)
T11C0 001:869 JLINK_ReadMem (0x40004404, 0x0001 Bytes, ...) -- CPU_ReadMem(1 bytes @ 0x40004404) - Data: 00  returns 0x00 (0001ms, 1021ms total)
T11C0 001:870 JLINK_ReadMem (0x40004408, 0x0001 Bytes, ...) -- CPU_ReadMem(1 bytes @ 0x40004408) - Data: 00  returns 0x00 (0001ms, 1022ms total)
T11C0 001:871 JLINK_ReadMem (0x4000440C, 0x0002 Bytes, ...) -- CPU_ReadMem(2 bytes @ 0x4000440C) - Data: 00 00  returns 0x00 (0001ms, 1023ms total)
T11C0 001:872 JLINK_ReadMem (0x40004410, 0x0002 Bytes, ...) -- CPU_ReadMem(2 bytes @ 0x40004410) - Data: 00 00  returns 0x00 (0001ms, 1024ms total)
T11C0 001:873 JLINK_ReadMem (0x40004414, 0x0002 Bytes, ...) -- CPU_ReadMem(2 bytes @ 0x40004414) - Data: 00 00  returns 0x00 (0001ms, 1025ms total)
T11C0 001:874 JLINK_ReadMem (0x40004418, 0x0002 Bytes, ...) -- CPU_ReadMem(2 bytes @ 0x40004418) - Data: 00 00  returns 0x00 (0001ms, 1026ms total)
T105C 112:454 JLINK_ReadMem (0x000003B8, 0x0002 Bytes, ...) -- Read from flash cache (2 bytes @ 0x000003B8) - Data: 00 BF  returns 0x00 (0000ms, 1026ms total)
T105C 112:454 JLINK_ReadMem (0x000003BA, 0x0002 Bytes, ...) -- Read from flash cache (2 bytes @ 0x000003BA) - Data: 00 24  returns 0x00 (0000ms, 1026ms total)
T105C 112:454 JLINK_Step() -- Read from flash cache (2 bytes @ 0x000003B8) -- CPU_ReadMem(4 bytes @ 0xE000ED18) -- CPU_WriteMem(4 bytes @ 0xE000ED18) -- CPU_ReadMem(4 bytes @ 0xE000ED18) -- CPU_WriteMem(4 bytes @ 0xE000ED18) -- CPU_ReadMem(4 bytes @ 0xE0001004) -- Simulated  returns 0x00 (0007ms, 1033ms total)
T105C 112:461 JLINK_ReadReg(R15 (PC))  returns 0x000003BA (0000ms, 1033ms total)
T105C 112:461 JLINK_ReadReg(XPSR)  returns 0x21000000 (0000ms, 1033ms total)
T105C 112:461 JLINK_ReadReg(R0)  returns 0x20000068 (0000ms, 1033ms total)
T105C 112:461 JLINK_ReadReg(R1)  returns 0x20000268 (0000ms, 1033ms total)
T105C 112:461 JLINK_ReadReg(R2)  returns 0x20000268 (0000ms, 1033ms total)
T105C 112:461 JLINK_ReadReg(R3)  returns 0x20000268 (0000ms, 1033ms total)
T105C 112:461 JLINK_ReadReg(R4)  returns 0x00000000 (0000ms, 1033ms total)
T105C 112:461 JLINK_ReadReg(R5)  returns 0x20000004 (0000ms, 1033ms total)
T105C 112:461 JLINK_ReadReg(R6)  returns 0x00000000 (0000ms, 1033ms total)
T105C 112:461 JLINK_ReadReg(R7)  returns 0x00000000 (0000ms, 1033ms total)
T105C 112:461 JLINK_ReadReg(R8)  returns 0x00000000 (0000ms, 1033ms total)
T105C 112:462 JLINK_ReadReg(R9)  returns 0x00000000 (0000ms, 1034ms total)
T105C 112:462 JLINK_ReadReg(R10)  returns 0x00000AE8 (0000ms, 1034ms total)
T105C 112:462 JLINK_ReadReg(R11)  returns 0x00000000 (0000ms, 1034ms total)
T105C 112:462 JLINK_ReadReg(R12)  returns 0x20000044 (0000ms, 1034ms total)
T105C 112:462 JLINK_ReadReg(R13 (SP))  returns 0x20000668 (0000ms, 1034ms total)
T105C 112:462 JLINK_ReadReg(R14)  returns 0x0000016B (0000ms, 1034ms total)
T105C 112:462 JLINK_ReadReg(R15 (PC))  returns 0x000003BA (0000ms, 1034ms total)
T105C 112:462 JLINK_ReadReg(XPSR)  returns 0x21000000 (0000ms, 1034ms total)
T105C 112:462 JLINK_ReadReg(MSP)  returns 0x20000668 (0000ms, 1034ms total)
T105C 112:462 JLINK_ReadReg(PSP)  returns 0x20000800 (0000ms, 1034ms total)
T105C 112:462 JLINK_ReadReg(CFBP)  returns 0x00000000 (0000ms, 1034ms total)
T11C0 112:462 JLINK_ReadMem (0x00000000, 0x0004 Bytes, ...) -- Read from flash cache (4 bytes @ 0x00000000) - Data: 68 06 00 20  returns 0x00 (0000ms, 1034ms total)
T11C0 112:462 JLINK_ReadMem (0x00000000, 0x0004 Bytes, ...) -- Read from flash cache (4 bytes @ 0x00000000) - Data: 68 06 00 20  returns 0x00 (0000ms, 1034ms total)
T11C0 112:467 JLINK_ReadMem (0x40030000, 0x0001 Bytes, ...) -- CPU_ReadMem(1 bytes @ 0x40030000) - Data: 00  returns 0x00 (0001ms, 1035ms total)
T11C0 112:468 JLINK_ReadMem (0x40030004, 0x0001 Bytes, ...) -- CPU_ReadMem(1 bytes @ 0x40030004) - Data: 00  returns 0x00 (0001ms, 1036ms total)
T11C0 112:469 JLINK_ReadMem (0x40030008, 0x0004 Bytes, ...) -- CPU_ReadMem(4 bytes @ 0x40030008) - Data: 00 00 08 00  returns 0x00 (0001ms, 1037ms total)
T11C0 112:470 JLINK_ReadMem (0x4003000C, 0x0002 Bytes, ...) -- CPU_ReadMem(2 bytes @ 0x4003000C) - Data: 00 00  returns 0x00 (0001ms, 1038ms total)
T11C0 112:471 JLINK_ReadMem (0x40030010, 0x0002 Bytes, ...) -- CPU_ReadMem(2 bytes @ 0x40030010) - Data: 60 55  returns 0x00 (0001ms, 1039ms total)
T11C0 112:472 JLINK_ReadMem (0x40030014, 0x0002 Bytes, ...) -- CPU_ReadMem(2 bytes @ 0x40030014) - Data: 65 55  returns 0x00 (0001ms, 1040ms total)
T11C0 112:473 JLINK_ReadMem (0x40030018, 0x0002 Bytes, ...) -- CPU_ReadMem(2 bytes @ 0x40030018) - Data: 55 55  returns 0x00 (0001ms, 1041ms total)
T11C0 112:474 JLINK_ReadMem (0x4003001C, 0x0002 Bytes, ...) -- CPU_ReadMem(2 bytes @ 0x4003001C) - Data: 00 00  returns 0x00 (0001ms, 1042ms total)
T11C0 112:475 JLINK_ReadMem (0x40030020, 0x0002 Bytes, ...) -- CPU_ReadMem(2 bytes @ 0x40030020) - Data: 7D 00  returns 0x00 (0001ms, 1043ms total)
T11C0 112:476 JLINK_ReadMem (0x40030024, 0x0002 Bytes, ...) -- CPU_ReadMem(2 bytes @ 0x40030024) - Data: 00 00  returns 0x00 (0001ms, 1044ms total)
T11C0 112:477 JLINK_ReadMem (0x40030028, 0x0002 Bytes, ...) -- CPU_ReadMem(2 bytes @ 0x40030028) - Data: 01 00  returns 0x00 (0001ms, 1045ms total)
T11C0 112:478 JLINK_ReadMem (0x4003002C, 0x0002 Bytes, ...) -- CPU_ReadMem(2 bytes @ 0x4003002C) - Data: 00 00  returns 0x00 (0001ms, 1046ms total)
T11C0 112:479 JLINK_ReadMem (0x40030030, 0x0002 Bytes, ...) -- CPU_ReadMem(2 bytes @ 0x40030030) - Data: 00 00  returns 0x00 (0001ms, 1047ms total)
T11C0 112:480 JLINK_ReadMem (0x40030034, 0x0001 Bytes, ...) -- CPU_ReadMem(1 bytes @ 0x40030034) - Data: 01  returns 0x00 (0001ms, 1048ms total)
T11C0 112:481 JLINK_ReadMem (0x40030038, 0x0001 Bytes, ...) -- CPU_ReadMem(1 bytes @ 0x40030038) - Data: 00  returns 0x00 (0001ms, 1049ms total)
T11C0 112:482 JLINK_ReadMem (0x4003003C, 0x0004 Bytes, ...) -- CPU_ReadMem(4 bytes @ 0x4003003C) - Data: 00 00 00 00  returns 0x00 (0001ms, 1050ms total)
T11C0 112:483 JLINK_ReadMem (0x40030040, 0x0004 Bytes, ...) -- CPU_ReadMem(4 bytes @ 0x40030040) - Data: 00 00 00 00  returns 0x00 (0001ms, 1051ms total)
T11C0 112:484 JLINK_ReadMem (0x40030044, 0x0001 Bytes, ...) -- CPU_ReadMem(1 bytes @ 0x40030044) - Data: 00  returns 0x00 (0001ms, 1052ms total)
T11C0 112:485 JLINK_ReadMem (0x40030048, 0x0004 Bytes, ...) -- CPU_ReadMem(4 bytes @ 0x40030048) - Data: 00 00 00 00  returns 0x00 (0001ms, 1053ms total)
T11C0 112:486 JLINK_ReadMem (0x40004400, 0x0002 Bytes, ...) -- CPU_ReadMem(2 bytes @ 0x40004400) - Data: 00 00  returns 0x00 (0001ms, 1054ms total)
T11C0 112:487 JLINK_ReadMem (0x40004404, 0x0001 Bytes, ...) -- CPU_ReadMem(1 bytes @ 0x40004404) - Data: 00  returns 0x00 (0001ms, 1055ms total)
T11C0 112:488 JLINK_ReadMem (0x40004408, 0x0001 Bytes, ...) -- CPU_ReadMem(1 bytes @ 0x40004408) - Data: 00  returns 0x00 (0001ms, 1056ms total)
T11C0 112:489 JLINK_ReadMem (0x4000440C, 0x0002 Bytes, ...) -- CPU_ReadMem(2 bytes @ 0x4000440C) - Data: 00 00  returns 0x00 (0001ms, 1057ms total)
T11C0 112:490 JLINK_ReadMem (0x40004410, 0x0002 Bytes, ...) -- CPU_ReadMem(2 bytes @ 0x40004410) - Data: 00 00  returns 0x00 (0001ms, 1058ms total)
T11C0 112:491 JLINK_ReadMem (0x40004414, 0x0002 Bytes, ...) -- CPU_ReadMem(2 bytes @ 0x40004414) - Data: 00 00  returns 0x00 (0001ms, 1059ms total)
T11C0 112:492 JLINK_ReadMem (0x40004418, 0x0002 Bytes, ...) -- CPU_ReadMem(2 bytes @ 0x40004418) - Data: 00 00  returns 0x00 (0001ms, 1060ms total)
T105C 112:912 JLINK_ReadMem (0x000003BA, 0x0002 Bytes, ...) -- Read from flash cache (2 bytes @ 0x000003BA) - Data: 00 24  returns 0x00 (0000ms, 1060ms total)
T105C 112:912 JLINK_ReadMem (0x000003BC, 0x0002 Bytes, ...) -- Read from flash cache (2 bytes @ 0x000003BC) - Data: A1 46  returns 0x00 (0000ms, 1060ms total)
T105C 112:912 JLINK_Step() -- Read from flash cache (2 bytes @ 0x000003BA) -- Simulated  returns 0x00 (0000ms, 1060ms total)
T105C 112:912 JLINK_ReadReg(R15 (PC))  returns 0x000003BC (0000ms, 1060ms total)
T105C 112:912 JLINK_ReadReg(XPSR)  returns 0x61000000 (0000ms, 1060ms total)
T105C 112:912 JLINK_ReadReg(R0)  returns 0x20000068 (0000ms, 1060ms total)
T105C 112:912 JLINK_ReadReg(R1)  returns 0x20000268 (0000ms, 1060ms total)
T105C 112:913 JLINK_ReadReg(R2)  returns 0x20000268 (0000ms, 1060ms total)
T105C 112:913 JLINK_ReadReg(R3)  returns 0x20000268 (0000ms, 1060ms total)
T105C 112:913 JLINK_ReadReg(R4)  returns 0x00000000 (0000ms, 1060ms total)
T105C 112:913 JLINK_ReadReg(R5)  returns 0x20000004 (0000ms, 1060ms total)
T105C 112:913 JLINK_ReadReg(R6)  returns 0x00000000 (0000ms, 1060ms total)
T105C 112:913 JLINK_ReadReg(R7)  returns 0x00000000 (0000ms, 1060ms total)
T105C 112:913 JLINK_ReadReg(R8)  returns 0x00000000 (0000ms, 1060ms total)
T105C 112:913 JLINK_ReadReg(R9)  returns 0x00000000 (0000ms, 1060ms total)
T105C 112:913 JLINK_ReadReg(R10)  returns 0x00000AE8 (0000ms, 1060ms total)
T105C 112:913 JLINK_ReadReg(R11)  returns 0x00000000 (0000ms, 1060ms total)
T105C 112:913 JLINK_ReadReg(R12)  returns 0x20000044 (0000ms, 1060ms total)
T105C 112:913 JLINK_ReadReg(R13 (SP))  returns 0x20000668 (0000ms, 1060ms total)
T105C 112:913 JLINK_ReadReg(R14)  returns 0x0000016B (0000ms, 1060ms total)
T105C 112:913 JLINK_ReadReg(R15 (PC))  returns 0x000003BC (0000ms, 1060ms total)
T105C 112:913 JLINK_ReadReg(XPSR)  returns 0x61000000 (0000ms, 1060ms total)
T105C 112:913 JLINK_ReadReg(MSP)  returns 0x20000668 (0000ms, 1060ms total)
T105C 112:913 JLINK_ReadReg(PSP)  returns 0x20000800 (0000ms, 1060ms total)
T105C 112:913 JLINK_ReadReg(CFBP)  returns 0x00000000 (0000ms, 1060ms total)
T11C0 112:914 JLINK_ReadMem (0x00000000, 0x0004 Bytes, ...) -- Read from flash cache (4 bytes @ 0x00000000) - Data: 68 06 00 20  returns 0x00 (0001ms, 1061ms total)
T11C0 112:915 JLINK_ReadMem (0x00000000, 0x0004 Bytes, ...) -- Read from flash cache (4 bytes @ 0x00000000) - Data: 68 06 00 20  returns 0x00 (0000ms, 1061ms total)
T11C0 112:917 JLINK_ReadMem (0x40030000, 0x0001 Bytes, ...) -- CPU_ReadMem(1 bytes @ 0x40030000) - Data: 00  returns 0x00 (0001ms, 1062ms total)
T11C0 112:919 JLINK_ReadMem (0x40030004, 0x0001 Bytes, ...) -- CPU_ReadMem(1 bytes @ 0x40030004) - Data: 00  returns 0x00 (0000ms, 1063ms total)
T11C0 112:920 JLINK_ReadMem (0x40030008, 0x0004 Bytes, ...) -- CPU_ReadMem(4 bytes @ 0x40030008) - Data: 00 00 08 00  returns 0x00 (0000ms, 1063ms total)
T11C0 112:920 JLINK_ReadMem (0x4003000C, 0x0002 Bytes, ...) -- CPU_ReadMem(2 bytes @ 0x4003000C) - Data: 00 00  returns 0x00 (0001ms, 1064ms total)
T11C0 112:922 JLINK_ReadMem (0x40030010, 0x0002 Bytes, ...) -- CPU_ReadMem(2 bytes @ 0x40030010) - Data: 60 55  returns 0x00 (0000ms, 1065ms total)
T11C0 112:922 JLINK_ReadMem (0x40030014, 0x0002 Bytes, ...) -- CPU_ReadMem(2 bytes @ 0x40030014) - Data: 65 55  returns 0x00 (0001ms, 1066ms total)
T11C0 112:923 JLINK_ReadMem (0x40030018, 0x0002 Bytes, ...) -- CPU_ReadMem(2 bytes @ 0x40030018) - Data: 55 55  returns 0x00 (0001ms, 1067ms total)
T11C0 112:924 JLINK_ReadMem (0x4003001C, 0x0002 Bytes, ...) -- CPU_ReadMem(2 bytes @ 0x4003001C) - Data: 00 00  returns 0x00 (0001ms, 1068ms total)
T11C0 112:925 JLINK_ReadMem (0x40030020, 0x0002 Bytes, ...) -- CPU_ReadMem(2 bytes @ 0x40030020) - Data: 7D 00  returns 0x00 (0001ms, 1069ms total)
T11C0 112:926 JLINK_ReadMem (0x40030024, 0x0002 Bytes, ...) -- CPU_ReadMem(2 bytes @ 0x40030024) - Data: 00 00  returns 0x00 (0001ms, 1070ms total)
T11C0 112:928 JLINK_ReadMem (0x40030028, 0x0002 Bytes, ...) -- CPU_ReadMem(2 bytes @ 0x40030028) - Data: 01 00  returns 0x00 (0000ms, 1070ms total)
T11C0 112:928 JLINK_ReadMem (0x4003002C, 0x0002 Bytes, ...) -- CPU_ReadMem(2 bytes @ 0x4003002C) - Data: 00 00  returns 0x00 (0001ms, 1071ms total)
T11C0 112:929 JLINK_ReadMem (0x40030030, 0x0002 Bytes, ...) -- CPU_ReadMem(2 bytes @ 0x40030030) - Data: 00 00  returns 0x00 (0001ms, 1072ms total)
T11C0 112:930 JLINK_ReadMem (0x40030034, 0x0001 Bytes, ...) -- CPU_ReadMem(1 bytes @ 0x40030034) - Data: 01  returns 0x00 (0001ms, 1073ms total)
T11C0 112:931 JLINK_ReadMem (0x40030038, 0x0001 Bytes, ...) -- CPU_ReadMem(1 bytes @ 0x40030038) - Data: 00  returns 0x00 (0001ms, 1074ms total)
T11C0 112:932 JLINK_ReadMem (0x4003003C, 0x0004 Bytes, ...) -- CPU_ReadMem(4 bytes @ 0x4003003C) - Data: 00 00 00 00  returns 0x00 (0001ms, 1075ms total)
T11C0 112:933 JLINK_ReadMem (0x40030040, 0x0004 Bytes, ...) -- CPU_ReadMem(4 bytes @ 0x40030040) - Data: 00 00 00 00  returns 0x00 (0001ms, 1076ms total)
T11C0 112:934 JLINK_ReadMem (0x40030044, 0x0001 Bytes, ...) -- CPU_ReadMem(1 bytes @ 0x40030044) - Data: 00  returns 0x00 (0001ms, 1077ms total)
T11C0 112:935 JLINK_ReadMem (0x40030048, 0x0004 Bytes, ...) -- CPU_ReadMem(4 bytes @ 0x40030048) - Data: 00 00 00 00  returns 0x00 (0001ms, 1078ms total)
T11C0 112:937 JLINK_ReadMem (0x40004400, 0x0002 Bytes, ...) -- CPU_ReadMem(2 bytes @ 0x40004400) - Data: 00 00  returns 0x00 (0000ms, 1078ms total)
T11C0 112:937 JLINK_ReadMem (0x40004404, 0x0001 Bytes, ...) -- CPU_ReadMem(1 bytes @ 0x40004404) - Data: 00  returns 0x00 (0001ms, 1079ms total)
T11C0 112:938 JLINK_ReadMem (0x40004408, 0x0001 Bytes, ...) -- CPU_ReadMem(1 bytes @ 0x40004408) - Data: 00  returns 0x00 (0001ms, 1080ms total)
T11C0 112:939 JLINK_ReadMem (0x4000440C, 0x0002 Bytes, ...) -- CPU_ReadMem(2 bytes @ 0x4000440C) - Data: 00 00  returns 0x00 (0001ms, 1081ms total)
T11C0 112:940 JLINK_ReadMem (0x40004410, 0x0002 Bytes, ...) -- CPU_ReadMem(2 bytes @ 0x40004410) - Data: 00 00  returns 0x00 (0001ms, 1082ms total)
T11C0 112:941 JLINK_ReadMem (0x40004414, 0x0002 Bytes, ...) -- CPU_ReadMem(2 bytes @ 0x40004414) - Data: 00 00  returns 0x00 (0001ms, 1083ms total)
T11C0 112:942 JLINK_ReadMem (0x40004418, 0x0002 Bytes, ...) -- CPU_ReadMem(2 bytes @ 0x40004418) - Data: 00 00  returns 0x00 (0001ms, 1084ms total)
T105C 113:252 JLINK_ReadMem (0x000003BC, 0x0002 Bytes, ...) -- Read from flash cache (2 bytes @ 0x000003BC) - Data: A1 46  returns 0x00 (0000ms, 1084ms total)
T105C 113:253 JLINK_ReadMem (0x000003BE, 0x0002 Bytes, ...) -- Read from flash cache (2 bytes @ 0x000003BE) - Data: 00 BF  returns 0x00 (0000ms, 1084ms total)
T105C 113:253 JLINK_Step() -- Read from flash cache (2 bytes @ 0x000003BC) -- Simulated  returns 0x00 (0001ms, 1085ms total)
T105C 113:254 JLINK_ReadReg(R15 (PC))  returns 0x000003BE (0000ms, 1085ms total)
T105C 113:254 JLINK_ReadReg(XPSR)  returns 0x61000000 (0000ms, 1085ms total)
T105C 113:254 JLINK_ReadReg(R0)  returns 0x20000068 (0000ms, 1085ms total)
T105C 113:254 JLINK_ReadReg(R1)  returns 0x20000268 (0001ms, 1086ms total)
T105C 113:255 JLINK_ReadReg(R2)  returns 0x20000268 (0000ms, 1086ms total)
T105C 113:255 JLINK_ReadReg(R3)  returns 0x20000268 (0000ms, 1086ms total)
T105C 113:255 JLINK_ReadReg(R4)  returns 0x00000000 (0000ms, 1086ms total)
T105C 113:255 JLINK_ReadReg(R5)  returns 0x20000004 (0000ms, 1086ms total)
T105C 113:255 JLINK_ReadReg(R6)  returns 0x00000000 (0000ms, 1086ms total)
T105C 113:255 JLINK_ReadReg(R7)  returns 0x00000000 (0000ms, 1086ms total)
T105C 113:255 JLINK_ReadReg(R8)  returns 0x00000000 (0000ms, 1086ms total)
T105C 113:255 JLINK_ReadReg(R9)  returns 0x00000000 (0000ms, 1086ms total)
T105C 113:255 JLINK_ReadReg(R10)  returns 0x00000AE8 (0000ms, 1086ms total)
T105C 113:255 JLINK_ReadReg(R11)  returns 0x00000000 (0000ms, 1086ms total)
T105C 113:255 JLINK_ReadReg(R12)  returns 0x20000044 (0000ms, 1086ms total)
T105C 113:255 JLINK_ReadReg(R13 (SP))  returns 0x20000668 (0000ms, 1086ms total)
T105C 113:255 JLINK_ReadReg(R14)  returns 0x0000016B (0000ms, 1086ms total)
T105C 113:255 JLINK_ReadReg(R15 (PC))  returns 0x000003BE (0000ms, 1086ms total)
T105C 113:256 JLINK_ReadReg(XPSR)  returns 0x61000000 (0000ms, 1087ms total)
T105C 113:256 JLINK_ReadReg(MSP)  returns 0x20000668 (0000ms, 1087ms total)
T105C 113:256 JLINK_ReadReg(PSP)  returns 0x20000800 (0000ms, 1087ms total)
T105C 113:256 JLINK_ReadReg(CFBP)  returns 0x00000000 (0000ms, 1087ms total)
T11C0 113:258 JLINK_ReadMem (0x00000000, 0x0004 Bytes, ...) -- Read from flash cache (4 bytes @ 0x00000000) - Data: 68 06 00 20  returns 0x00 (0000ms, 1087ms total)
T11C0 113:258 JLINK_ReadMem (0x00000000, 0x0004 Bytes, ...) -- Read from flash cache (4 bytes @ 0x00000000) - Data: 68 06 00 20  returns 0x00 (0000ms, 1087ms total)
T11C0 113:263 JLINK_ReadMem (0x40030000, 0x0001 Bytes, ...) -- CPU_ReadMem(1 bytes @ 0x40030000) - Data: 00  returns 0x00 (0001ms, 1088ms total)
T11C0 113:264 JLINK_ReadMem (0x40030004, 0x0001 Bytes, ...) -- CPU_ReadMem(1 bytes @ 0x40030004) - Data: 00  returns 0x00 (0001ms, 1089ms total)
T11C0 113:265 JLINK_ReadMem (0x40030008, 0x0004 Bytes, ...) -- CPU_ReadMem(4 bytes @ 0x40030008) - Data: 00 00 08 00  returns 0x00 (0001ms, 1090ms total)
T11C0 113:266 JLINK_ReadMem (0x4003000C, 0x0002 Bytes, ...) -- CPU_ReadMem(2 bytes @ 0x4003000C) - Data: 00 00  returns 0x00 (0001ms, 1091ms total)
T11C0 113:267 JLINK_ReadMem (0x40030010, 0x0002 Bytes, ...) -- CPU_ReadMem(2 bytes @ 0x40030010) - Data: 60 55  returns 0x00 (0001ms, 1092ms total)
T11C0 113:268 JLINK_ReadMem (0x40030014, 0x0002 Bytes, ...) -- CPU_ReadMem(2 bytes @ 0x40030014) - Data: 65 55  returns 0x00 (0001ms, 1093ms total)
T11C0 113:269 JLINK_ReadMem (0x40030018, 0x0002 Bytes, ...) -- CPU_ReadMem(2 bytes @ 0x40030018) - Data: 55 55  returns 0x00 (0001ms, 1094ms total)
T11C0 113:270 JLINK_ReadMem (0x4003001C, 0x0002 Bytes, ...) -- CPU_ReadMem(2 bytes @ 0x4003001C) - Data: 00 00  returns 0x00 (0001ms, 1095ms total)
T11C0 113:271 JLINK_ReadMem (0x40030020, 0x0002 Bytes, ...) -- CPU_ReadMem(2 bytes @ 0x40030020) - Data: 7D 00  returns 0x00 (0001ms, 1096ms total)
T11C0 113:272 JLINK_ReadMem (0x40030024, 0x0002 Bytes, ...) -- CPU_ReadMem(2 bytes @ 0x40030024) - Data: 00 00  returns 0x00 (0001ms, 1097ms total)
T11C0 113:273 JLINK_ReadMem (0x40030028, 0x0002 Bytes, ...) -- CPU_ReadMem(2 bytes @ 0x40030028) - Data: 01 00  returns 0x00 (0001ms, 1098ms total)
T11C0 113:274 JLINK_ReadMem (0x4003002C, 0x0002 Bytes, ...) -- CPU_ReadMem(2 bytes @ 0x4003002C) - Data: 00 00  returns 0x00 (0001ms, 1099ms total)
T11C0 113:275 JLINK_ReadMem (0x40030030, 0x0002 Bytes, ...) -- CPU_ReadMem(2 bytes @ 0x40030030) - Data: 00 00  returns 0x00 (0001ms, 1100ms total)
T11C0 113:276 JLINK_ReadMem (0x40030034, 0x0001 Bytes, ...) -- CPU_ReadMem(1 bytes @ 0x40030034) - Data: 01  returns 0x00 (0001ms, 1101ms total)
T11C0 113:277 JLINK_ReadMem (0x40030038, 0x0001 Bytes, ...) -- CPU_ReadMem(1 bytes @ 0x40030038) - Data: 00  returns 0x00 (0001ms, 1102ms total)
T11C0 113:278 JLINK_ReadMem (0x4003003C, 0x0004 Bytes, ...) -- CPU_ReadMem(4 bytes @ 0x4003003C) - Data: 00 00 00 00  returns 0x00 (0001ms, 1103ms total)
T11C0 113:279 JLINK_ReadMem (0x40030040, 0x0004 Bytes, ...) -- CPU_ReadMem(4 bytes @ 0x40030040) - Data: 00 00 00 00  returns 0x00 (0001ms, 1104ms total)
T11C0 113:280 JLINK_ReadMem (0x40030044, 0x0001 Bytes, ...) -- CPU_ReadMem(1 bytes @ 0x40030044) - Data: 00  returns 0x00 (0001ms, 1105ms total)
T11C0 113:281 JLINK_ReadMem (0x40030048, 0x0004 Bytes, ...) -- CPU_ReadMem(4 bytes @ 0x40030048) - Data: 00 00 00 00  returns 0x00 (0001ms, 1106ms total)
T11C0 113:283 JLINK_ReadMem (0x40004400, 0x0002 Bytes, ...) -- CPU_ReadMem(2 bytes @ 0x40004400) - Data: 00 00  returns 0x00 (0001ms, 1107ms total)
T11C0 113:284 JLINK_ReadMem (0x40004404, 0x0001 Bytes, ...) -- CPU_ReadMem(1 bytes @ 0x40004404) - Data: 00  returns 0x00 (0001ms, 1108ms total)
T11C0 113:285 JLINK_ReadMem (0x40004408, 0x0001 Bytes, ...) -- CPU_ReadMem(1 bytes @ 0x40004408) - Data: 00  returns 0x00 (0001ms, 1109ms total)
T11C0 113:286 JLINK_ReadMem (0x4000440C, 0x0002 Bytes, ...) -- CPU_ReadMem(2 bytes @ 0x4000440C) - Data: 00 00  returns 0x00 (0001ms, 1110ms total)
T11C0 113:287 JLINK_ReadMem (0x40004410, 0x0002 Bytes, ...) -- CPU_ReadMem(2 bytes @ 0x40004410) - Data: 00 00  returns 0x00 (0001ms, 1111ms total)
T11C0 113:288 JLINK_ReadMem (0x40004414, 0x0002 Bytes, ...) -- CPU_ReadMem(2 bytes @ 0x40004414) - Data: 00 00  returns 0x00 (0001ms, 1112ms total)
T11C0 113:289 JLINK_ReadMem (0x40004418, 0x0002 Bytes, ...) -- CPU_ReadMem(2 bytes @ 0x40004418) - Data: 00 00  returns 0x00 (0001ms, 1113ms total)
T105C 113:496 JLINK_ReadMem (0x000003BE, 0x0002 Bytes, ...) -- Read from flash cache (2 bytes @ 0x000003BE) - Data: 00 BF  returns 0x00 (0000ms, 1113ms total)
T105C 113:496 JLINK_ReadMem (0x000003C0, 0x0002 Bytes, ...) -- Read from flash cache (2 bytes @ 0x000003C0) - Data: FF F7  returns 0x00 (0000ms, 1113ms total)
T105C 113:496 JLINK_Step() -- Read from flash cache (2 bytes @ 0x000003BE) -- Simulated  returns 0x00 (0000ms, 1113ms total)
T105C 113:496 JLINK_ReadReg(R15 (PC))  returns 0x000003C0 (0000ms, 1113ms total)
T105C 113:496 JLINK_ReadReg(XPSR)  returns 0x61000000 (0000ms, 1113ms total)
T105C 113:496 JLINK_ReadReg(R0)  returns 0x20000068 (0000ms, 1113ms total)
T105C 113:496 JLINK_ReadReg(R1)  returns 0x20000268 (0000ms, 1113ms total)
T105C 113:496 JLINK_ReadReg(R2)  returns 0x20000268 (0000ms, 1113ms total)
T105C 113:496 JLINK_ReadReg(R3)  returns 0x20000268 (0000ms, 1113ms total)
T105C 113:496 JLINK_ReadReg(R4)  returns 0x00000000 (0000ms, 1113ms total)
T105C 113:496 JLINK_ReadReg(R5)  returns 0x20000004 (0000ms, 1113ms total)
T105C 113:496 JLINK_ReadReg(R6)  returns 0x00000000 (0000ms, 1113ms total)
T105C 113:496 JLINK_ReadReg(R7)  returns 0x00000000 (0000ms, 1113ms total)
T105C 113:496 JLINK_ReadReg(R8)  returns 0x00000000 (0000ms, 1113ms total)
T105C 113:496 JLINK_ReadReg(R9)  returns 0x00000000 (0000ms, 1113ms total)
T105C 113:496 JLINK_ReadReg(R10)  returns 0x00000AE8 (0000ms, 1113ms total)
T105C 113:496 JLINK_ReadReg(R11)  returns 0x00000000 (0000ms, 1113ms total)
T105C 113:496 JLINK_ReadReg(R12)  returns 0x20000044 (0000ms, 1113ms total)
T105C 113:496 JLINK_ReadReg(R13 (SP))  returns 0x20000668 (0000ms, 1113ms total)
T105C 113:496 JLINK_ReadReg(R14)  returns 0x0000016B (0000ms, 1113ms total)
T105C 113:496 JLINK_ReadReg(R15 (PC))  returns 0x000003C0 (0000ms, 1113ms total)
T105C 113:496 JLINK_ReadReg(XPSR)  returns 0x61000000 (0000ms, 1113ms total)
T105C 113:496 JLINK_ReadReg(MSP)  returns 0x20000668 (0000ms, 1113ms total)
T105C 113:496 JLINK_ReadReg(PSP)  returns 0x20000800 (0000ms, 1113ms total)
T105C 113:496 JLINK_ReadReg(CFBP)  returns 0x00000000 (0000ms, 1113ms total)
T11C0 113:497 JLINK_ReadMem (0x00000000, 0x0004 Bytes, ...) -- Read from flash cache (4 bytes @ 0x00000000) - Data: 68 06 00 20  returns 0x00 (0001ms, 1114ms total)
T11C0 113:498 JLINK_ReadMem (0x00000000, 0x0004 Bytes, ...) -- Read from flash cache (4 bytes @ 0x00000000) - Data: 68 06 00 20  returns 0x00 (0000ms, 1114ms total)
T11C0 113:499 JLINK_ReadMem (0x40030000, 0x0001 Bytes, ...) -- CPU_ReadMem(1 bytes @ 0x40030000) - Data: 00  returns 0x00 (0001ms, 1115ms total)
T11C0 113:501 JLINK_ReadMem (0x40030004, 0x0001 Bytes, ...) -- CPU_ReadMem(1 bytes @ 0x40030004) - Data: 00  returns 0x00 (0000ms, 1115ms total)
T11C0 113:501 JLINK_ReadMem (0x40030008, 0x0004 Bytes, ...) -- CPU_ReadMem(4 bytes @ 0x40030008) - Data: 00 00 08 00  returns 0x00 (0001ms, 1116ms total)
T11C0 113:502 JLINK_ReadMem (0x4003000C, 0x0002 Bytes, ...) -- CPU_ReadMem(2 bytes @ 0x4003000C) - Data: 00 00  returns 0x00 (0001ms, 1117ms total)
T11C0 113:503 JLINK_ReadMem (0x40030010, 0x0002 Bytes, ...) -- CPU_ReadMem(2 bytes @ 0x40030010) - Data: 60 55  returns 0x00 (0001ms, 1118ms total)
T11C0 113:504 JLINK_ReadMem (0x40030014, 0x0002 Bytes, ...) -- CPU_ReadMem(2 bytes @ 0x40030014) - Data: 65 55  returns 0x00 (0001ms, 1119ms total)
T11C0 113:505 JLINK_ReadMem (0x40030018, 0x0002 Bytes, ...) -- CPU_ReadMem(2 bytes @ 0x40030018) - Data: 55 55  returns 0x00 (0001ms, 1120ms total)
T11C0 113:506 JLINK_ReadMem (0x4003001C, 0x0002 Bytes, ...) -- CPU_ReadMem(2 bytes @ 0x4003001C) - Data: 00 00  returns 0x00 (0001ms, 1121ms total)
T11C0 113:507 JLINK_ReadMem (0x40030020, 0x0002 Bytes, ...) -- CPU_ReadMem(2 bytes @ 0x40030020) - Data: 7D 00  returns 0x00 (0001ms, 1122ms total)
T11C0 113:508 JLINK_ReadMem (0x40030024, 0x0002 Bytes, ...) -- CPU_ReadMem(2 bytes @ 0x40030024) - Data: 00 00  returns 0x00 (0001ms, 1123ms total)
T11C0 113:509 JLINK_ReadMem (0x40030028, 0x0002 Bytes, ...) -- CPU_ReadMem(2 bytes @ 0x40030028) - Data: 01 00  returns 0x00 (0001ms, 1124ms total)
T11C0 113:510 JLINK_ReadMem (0x4003002C, 0x0002 Bytes, ...) -- CPU_ReadMem(2 bytes @ 0x4003002C) - Data: 00 00  returns 0x00 (0001ms, 1125ms total)
T11C0 113:511 JLINK_ReadMem (0x40030030, 0x0002 Bytes, ...) -- CPU_ReadMem(2 bytes @ 0x40030030) - Data: 00 00  returns 0x00 (0001ms, 1126ms total)
T11C0 113:512 JLINK_ReadMem (0x40030034, 0x0001 Bytes, ...) -- CPU_ReadMem(1 bytes @ 0x40030034) - Data: 01  returns 0x00 (0001ms, 1127ms total)
T11C0 113:514 JLINK_ReadMem (0x40030038, 0x0001 Bytes, ...) -- CPU_ReadMem(1 bytes @ 0x40030038) - Data: 00  returns 0x00 (0000ms, 1127ms total)
T11C0 113:514 JLINK_ReadMem (0x4003003C, 0x0004 Bytes, ...) -- CPU_ReadMem(4 bytes @ 0x4003003C) - Data: 00 00 00 00  returns 0x00 (0001ms, 1128ms total)
T11C0 113:515 JLINK_ReadMem (0x40030040, 0x0004 Bytes, ...) -- CPU_ReadMem(4 bytes @ 0x40030040) - Data: 00 00 00 00  returns 0x00 (0001ms, 1129ms total)
T11C0 113:516 JLINK_ReadMem (0x40030044, 0x0001 Bytes, ...) -- CPU_ReadMem(1 bytes @ 0x40030044) - Data: 00  returns 0x00 (0001ms, 1130ms total)
T11C0 113:517 JLINK_ReadMem (0x40030048, 0x0004 Bytes, ...) -- CPU_ReadMem(4 bytes @ 0x40030048) - Data: 00 00 00 00  returns 0x00 (0001ms, 1131ms total)
T11C0 113:519 JLINK_ReadMem (0x40004400, 0x0002 Bytes, ...) -- CPU_ReadMem(2 bytes @ 0x40004400) - Data: 00 00  returns 0x00 (0000ms, 1131ms total)
T11C0 113:519 JLINK_ReadMem (0x40004404, 0x0001 Bytes, ...) -- CPU_ReadMem(1 bytes @ 0x40004404) - Data: 00  returns 0x00 (0001ms, 1132ms total)
T11C0 113:520 JLINK_ReadMem (0x40004408, 0x0001 Bytes, ...) -- CPU_ReadMem(1 bytes @ 0x40004408) - Data: 00  returns 0x00 (0001ms, 1133ms total)
T11C0 113:521 JLINK_ReadMem (0x4000440C, 0x0002 Bytes, ...) -- CPU_ReadMem(2 bytes @ 0x4000440C) - Data: 00 00  returns 0x00 (0001ms, 1134ms total)
T11C0 113:522 JLINK_ReadMem (0x40004410, 0x0002 Bytes, ...) -- CPU_ReadMem(2 bytes @ 0x40004410) - Data: 00 00  returns 0x00 (0001ms, 1135ms total)
T11C0 113:523 JLINK_ReadMem (0x40004414, 0x0002 Bytes, ...) -- CPU_ReadMem(2 bytes @ 0x40004414) - Data: 00 00  returns 0x00 (0001ms, 1136ms total)
T11C0 113:524 JLINK_ReadMem (0x40004418, 0x0002 Bytes, ...) -- CPU_ReadMem(2 bytes @ 0x40004418) - Data: 00 00  returns 0x00 (0001ms, 1137ms total)
T105C 113:802 JLINK_ReadMem (0x000003C0, 0x0002 Bytes, ...) -- Read from flash cache (2 bytes @ 0x000003C0) - Data: FF F7  returns 0x00 (0000ms, 1137ms total)
T105C 113:802 JLINK_ReadMem (0x000003C2, 0x0002 Bytes, ...) -- Read from flash cache (2 bytes @ 0x000003C2) - Data: 72 FF  returns 0x00 (0000ms, 1137ms total)
T105C 113:802 JLINK_SetBPEx(Addr = 0x000003C4, Type = 0xFFFFFFF2)  returns 0x00000002 (0000ms, 1137ms total)
T105C 113:802 JLINK_Go() -- CPU_WriteMem(4 bytes @ 0xE0002000) -- CPU_ReadMem(4 bytes @ 0xE0001000) -- CPU_WriteMem(4 bytes @ 0xE0002008) -- CPU_WriteMem(4 bytes @ 0xE0001004) (0008ms, 1145ms total)
T105C 113:910 JLINK_IsHalted()  returns TRUE (0003ms, 1148ms total)
T105C 113:913 JLINK_Halt()  returns 0x00 (0000ms, 1145ms total)
T105C 113:913 JLINK_IsHalted()  returns TRUE (0000ms, 1145ms total)
T105C 113:913 JLINK_IsHalted()  returns TRUE (0000ms, 1145ms total)
T105C 113:913 JLINK_IsHalted()  returns TRUE (0000ms, 1145ms total)
T105C 113:913 JLINK_ReadReg(R15 (PC))  returns 0x000003C4 (0000ms, 1145ms total)
T105C 113:913 JLINK_ReadReg(XPSR)  returns 0x61000000 (0000ms, 1145ms total)
T105C 113:913 JLINK_ClrBPEx(BPHandle = 0x00000002)  returns 0x00 (0000ms, 1145ms total)
T105C 113:913 JLINK_ReadMemU32(0xE000ED30, 0x0001 Items, ...) -- CPU_ReadMem(4 bytes @ 0xE000ED30) - Data: 02 00 00 00  returns 0x01 (0001ms, 1146ms total)
T105C 113:914 JLINK_ReadMemU32(0xE0001028, 0x0001 Items, ...) -- CPU_ReadMem(4 bytes @ 0xE0001028) - Data: 00 00 00 00  returns 0x01 (0001ms, 1147ms total)
